Title: * F:\Dropbox\GitHub\ltspice2matlab\testdata\text\op\op.asc
Date: Sat Mar 30 09:04:10 2019
Plotname: Operating Point
Flags: real
No. Variables: 22
No. Points:            1
Offset:   0.0000000000000000e+000
Command: Linear Technology Corporation LTspice XVII
Variables:
	0	V(uc1)	voltage
	1	V(ue1)	voltage
	2	V(ue12)	voltage
	3	V(uc2)	voltage
	4	V(ue2)	voltage
	5	V(vee)	voltage
	6	V(vcc)	voltage
	7	V(ued)	voltage
	8	Ic(Q2)	device_current
	9	Ib(Q2)	device_current
	10	Ie(Q2)	device_current
	11	Ic(Q1)	device_current
	12	Ib(Q1)	device_current
	13	Ie(Q1)	device_current
	14	I(I1)	device_current
	15	I(R2)	device_current
	16	I(R1)	device_current
	17	I(E2)	device_current
	18	I(E1)	device_current
	19	I(V1)	device_current
	20	I(Ve)	device_current
	21	I(Vc)	device_current
Values:
0		7.524156260874957e+000
	0.000000000000000e+000
	-6.804260543802545e-001
	7.524156260874936e+000
	0.000000000000000e+000
	-1.500000000000000e+001
	1.500000000000000e+001
	0.000000000000000e+000
	4.983895826083874e-003
	1.610417391622278e-005
	-4.999999999999992e-003
	4.983895826083874e-003
	1.610417391622281e-005
	-4.999999999999992e-003
	1.000000000000000e-002
	4.983895826083376e-003
	4.983895826083362e-003
	-1.610417391622278e-005
	-1.610417391622281e-005
	0.000000000000000e+000
	-1.000000000000000e-002
	-9.967791652166737e-003
